!Created with skrf (http://scikit-rf.org).
# GHz S RI R 8002.45012556465 
!freq ReS11 ImS11 ReS21 ImS21 ReS12 ImS12 ReS22 ImS22
21.1 -0.9996761594122265 0.0018214128603300328 1.978959131381467e-06 -4.928271578399838e-07 1.9789591313814678e-06 -4.928271578399838e-07 -0.9996761594122265 0.0018214128603300328
21.102500000000003 -0.9997157235225425 0.0018562910240619338 1.7636198852874385e-06 -1.2558933357471137e-06 1.7636198852874391e-06 -1.2558933357471142e-06 -0.9997157235225426 0.0018562910240619338
21.105 -0.9997555567100812 0.0018915552290821702 1.281481623030121e-06 -1.6460383735124803e-06 1.2814816230301216e-06 -1.6460383735124805e-06 -0.9997555567100813 0.0018915552290821702
21.1075 -0.9997953243827195 0.0019271173495729046 8.669611855010917e-07 -1.7516123163964966e-06 8.669611855010919e-07 -1.7516123163964968e-06 -0.9997953243827196 0.0019271173495729048
21.110000000000003 -0.9998349674008988 0.0019628028376479484 5.789982213061231e-07 -1.747253136675345e-06 5.789982213061231e-07 -1.747253136675345e-06 -0.9998349674008988 0.0019628028376479484
21.1125 -0.9998668614215632 0.0020481975327523183 3.866736218602751e-07 -1.729884884434454e-06 3.8667362186027526e-07 -1.7298848844344544e-06 -0.9998668614215632 0.0020481975327523183
21.115000000000006 -0.9998986977454578 0.002133603687437606 2.5080523215163994e-07 -1.7182810529050382e-06 2.5080523215163994e-07 -1.7182810529050382e-06 -0.9998986977454578 0.0021336036874376055
21.1175 -0.9999304981233383 0.0022190141713742347 1.4886988818806895e-07 -1.720839790734291e-06 1.4886988818806895e-07 -1.720839790734291e-06 -0.9999304981233383 0.002219014171374235
21.12 -0.9999622753420423 0.0023044285831662023 6.712022453390874e-08 -1.7393906856886708e-06 6.712022453390874e-08 -1.7393906856886708e-06 -0.9999622753420423 0.0023044285831662023
21.122500000000002 -0.9999621144419509 0.0023813519337845036 -3.349943568580981e-09 -1.7812407782398906e-06 -3.3499435685808423e-09 -1.7812407782398904e-06 -0.9999621144419509 0.0023813519337845036
21.125 -0.9999619405421388 0.002458284339643185 -6.851590773697717e-08 -1.8410920023266803e-06 -6.85159077369772e-08 -1.8410920023266803e-06 -0.9999619405421389 0.002458284339643185
21.1275 -0.9999617555408166 0.002535228820693797 -1.3268982328228106e-07 -1.9194047217037644e-06 -1.3268982328228103e-07 -1.9194047217037644e-06 -0.9999617555408166 0.002535228820693797
21.130000000000003 -0.9999615598846806 0.0026121885564987964 -1.9949528120621066e-07 -2.0172199177588916e-06 -1.9949528120621056e-07 -2.0172199177588925e-06 -0.9999615598846806 0.0026121885564987964
21.1325 -0.999955340767039 0.002668705812078496 -2.732463460476e-07 -2.1416241290909613e-06 -2.7324634604760004e-07 -2.1416241290909613e-06 -0.9999553407670391 0.002668705812078496
21.135 -0.9999491071130029 0.002725247261764446 -3.575987544905412e-07 -2.2917585896187646e-06 -3.575987544905412e-07 -2.2917585896187646e-06 -0.999949107113003 0.0027252472617644457
21.137500000000003 -0.9999428552989923 0.002781818095126831 -4.5751669353628573e-07 -2.4716327763289496e-06 -4.5751669353628547e-07 -2.4716327763289496e-06 -0.9999428552989923 0.002781818095126831
21.14 -0.9999365797106063 0.0028384245856559586 -5.795838078543716e-07 -2.6865831461462088e-06 -5.795838078543717e-07 -2.686583146146208e-06 -0.9999365797106063 0.0028384245856559586
21.1425 -0.999935493228524 0.0028847567427819605 -7.342886976136795e-07 -2.948728669187118e-06 -7.342886976136796e-07 -2.948728669187118e-06 -0.999935493228524 0.0028847567427819605
21.145000000000003 -0.9999343600750191 0.0029311440074966714 -9.348814429626392e-07 -3.264070795248593e-06 -9.348814429626392e-07 -3.264070795248593e-06 -0.999934360075019 0.002931144007496672
21.1475 -0.9999331594505156 0.002977599001050092 -1.2025565816553988e-06 -3.6446540836673197e-06 -1.2025565816553982e-06 -3.6446540836673197e-06 -0.9999331594505155 0.002977599001050092
21.150000000000002 -0.9999318580923368 0.003024136651791239 -1.5708768539619303e-06 -4.104925045416204e-06 -1.57087685396193e-06 -4.104925045416203e-06 -0.9999318580923368 0.0030241366517912392
21.1525 -0.9999346494652691 0.0030688505092424526 -2.097624713848436e-06 -4.665941128712731e-06 -2.0976247138484363e-06 -4.665941128712731e-06 -0.9999346494652691 0.0030688505092424526
21.155 -0.9999371892233504 0.0031136733736334982 -2.875994739934647e-06 -5.3320813507021755e-06 -2.875994739934647e-06 -5.332081350702177e-06 -0.9999371892233505 0.0031136733736334982
21.157500000000002 -0.9999393147040895 0.0031585805669002457 -4.068774032776084e-06 -6.078284612021422e-06 -4.068774032776085e-06 -6.078284612021423e-06 -0.9999393147040895 0.0031585805669002457
21.16 -0.9999407557218714 0.0032034313042198603 -5.946239160933109e-06 -6.763417918424638e-06 -5.946239160933109e-06 -6.763417918424638e-06 -0.9999407557218712 0.0032034313042198603
21.1625 -0.9999414212512688 0.0032485558298105616 -8.87075668203967e-06 -6.908135741701257e-06 -8.87075668203967e-06 -6.908135741701256e-06 -0.9999414212512688 0.0032485558298105616
21.165000000000003 -0.9999410795841129 0.003291913521705126 -1.280254783662932e-05 -5.280530434176292e-06 -1.2802547836629318e-05 -5.280530434176291e-06 -0.9999410795841129 0.003291913521705126
21.1675 -0.999941647511303 0.003332147845790779 -1.5824834137711312e-05 -5.237054871764349e-07 -1.5824834137711312e-05 -5.237054871764349e-07 -0.9999416475113029 0.003332147845790779
21.17 -0.9999461921830635 0.0033711918967813657 -1.4870459586338224e-05 5.429603141957661e-06 -1.4870459586338221e-05 5.42960314195766e-06 -0.9999461921830635 0.0033711918967813657
21.172500000000003 -0.9999509768602103 0.0034129824738367994 -1.1127931694305535e-05 8.776961882347205e-06 -1.1127931694305536e-05 8.776961882347207e-06 -0.9999509768602103 0.0034129824738368
21.175 -0.9999555191209641 0.003457406007956021 -7.627629299740392e-06 9.498605798882337e-06 -7.62762929974039e-06 9.498605798882337e-06 -0.9999555191209641 0.0034574060079560205
21.177500000000006 -0.9999589652321712 0.0035029476934533518 -5.223222066293151e-06 9.10978621830763e-06 -5.22322206629315e-06 9.109786218307628e-06 -0.9999589652321712 0.003502947693453352
21.18 -0.9999615533302181 0.00354877396786094 -3.676492907581589e-06 8.444532935828845e-06 -3.6764929075815894e-06 8.444532935828847e-06 -0.9999615533302181 0.00354877396786094
21.1825 -0.9999601231829532 0.0035929935330996543 -2.6709440613555113e-06 7.797105981254605e-06 -2.67094406135551e-06 7.797105981254605e-06 -0.9999601231829532 0.0035929935330996548
21.185000000000002 -0.9999583643911429 0.0036371330579285594 -1.9932979030981476e-06 7.2392367791924855e-06 -1.9932979030981484e-06 7.239236779192484e-06 -0.9999583643911429 0.00363713305792856
21.1875 -0.9999564014973712 0.003681184605722488 -1.5188621965130553e-06 6.779493984867166e-06 -1.518862196513056e-06 6.779493984867166e-06 -0.9999564014973712 0.003681184605722488
21.19 -0.9999543076501332 0.0037251592647808995 -1.1743134570228952e-06 6.40747469460755e-06 -1.1743134570228946e-06 6.407474694607548e-06 -0.999954307650133 0.0037251592647808995
21.192500000000003 -0.9999490896709186 0.003765965987053236 -9.15853323284297e-07 6.112605191816308e-06 -9.158533232842968e-07 6.11260519181631e-06 -0.9999490896709186 0.003765965987053236
21.195 -0.9999438119257663 0.00380672386164685 -7.154778518430591e-07 5.8793550757111474e-06 -7.154778518430582e-07 5.8793550757111474e-06 -0.9999438119257664 0.0038067238616468495
21.1975 -0.9999384917842382 0.00384744400260859 -5.555312352593453e-07 5.697578646148298e-06 -5.555312352593456e-07 5.697578646148297e-06 -0.9999384917842381 0.00384744400260859
21.200000000000003 -0.9999331406627053 0.0038881354470524177 -4.2426439828860285e-07 5.559312202205481e-06 -4.2426439828860285e-07 5.559312202205481e-06 -0.9999331406627053 0.003888135447052418
21.2025 -0.9999258377637052 0.003924865252464909 -3.136608523608267e-07 5.460756443641033e-06 -3.136608523608267e-07 5.460756443641033e-06 -0.9999258377637052 0.00392486525246491
21.205 -0.9999185167402708 0.003961579910099363 -2.1787561296552685e-07 5.395096154951814e-06 -2.1787561296552662e-07 5.395096154951815e-06 -0.9999185167402708 0.003961579910099363
21.207500000000003 -0.9999111812292478 0.003998284433150563 -1.327280198310118e-07 5.358888171549312e-06 -1.327280198310118e-07 5.358888171549313e-06 -0.9999111812292477 0.003998284433150562
21.21 -0.9999038337549033 0.004034983093252203 -5.505401467802939e-08 5.349633546583308e-06 -5.505401467802939e-08 5.349633546583308e-06 -0.9999038337549033 0.004034983093252203
21.212500000000002 -0.999895802418177 0.004067572832535465 1.769284378988236e-08 5.367533659838532e-06 1.7692843789882233e-08 5.367533659838531e-06 -0.9998958024181771 0.004067572832535465
21.215 -0.9998877618739375 0.004100164052003831 8.754152316524711e-08 5.409790342656146e-06 8.754152316524706e-08 5.409790342656146e-06 -0.9998877618739375 0.004100164052003831
21.2175 -0.999879712786639 0.004132759928344813 1.56247100609921e-07 5.475925215196816e-06 1.56247100609921e-07 5.475925215196816e-06 -0.9998797127866389 0.004132759928344812
21.220000000000002 -0.999871655437405 0.004165363526856278 2.2540155669462827e-07 5.565978517127289e-06 2.2540155669462832e-07 5.565978517127289e-06 -0.999871655437405 0.004165363526856277
21.2225 -0.9998640178308638 0.004194201702338619 2.9665429117830917e-07 5.682232874040071e-06 2.966542911783091e-07 5.6822328740400715e-06 -0.9998640178308636 0.004194201702338619
21.225 -0.9998563713996128 0.004223054075310506 3.7148775450209445e-07 5.824211372043854e-06 3.714877545020946e-07 5.8242113720438545e-06 -0.9998563713996129 0.004223054075310506
21.227500000000003 -0.999848715407456 0.0042519240381140916 4.515654572428734e-07 5.993501771468635e-06 4.515654572428736e-07 5.993501771468635e-06 -0.999848715407456 0.0042519240381140916
21.23 -0.9998410487418375 0.004280815292255158 5.387480699228692e-07 6.192265672940296e-06 5.387480699228694e-07 6.192265672940297e-06 -0.9998410487418375 0.004280815292255158
21.2325 -0.9998346173653512 0.004306584178335217 6.353768897193546e-07 6.425036042830327e-06 6.353768897193548e-07 6.425036042830327e-06 -0.9998346173653513 0.004306584178335217
21.235000000000003 -0.9998281715294319 0.004332383528914077 7.439460844086495e-07 6.6939537696399945e-06 7.439460844086501e-07 6.693953769639995e-06 -0.9998281715294319 0.004332383528914077
21.2375 -0.9998217084181605 0.0043582188862396655 8.676811287420871e-07 7.003555398162319e-06 8.676811287420871e-07 7.003555398162318e-06 -0.9998217084181605 0.004358218886239665
21.240000000000006 -0.9998152242951602 0.0043840967941405976 1.0106578270782598e-06 7.359502354555231e-06 1.0106578270782598e-06 7.35950235455523e-06 -0.9998152242951602 0.004384096794140598
21.2425 -0.9998104758957382 0.004407635724914963 1.1783974727901786e-06 7.770696228271328e-06 1.1783974727901786e-06 7.770696228271328e-06 -0.9998104758957382 0.004407635724914963
21.245 -0.9998056946495405 0.004431234976197617 1.3776805872407007e-06 8.244492530498653e-06 1.377680587240701e-06 8.244492530498654e-06 -0.9998056946495405 0.004431234976197618
21.247500000000002 -0.9998008714112137 0.0044549063314392205 1.6178498636753626e-06 8.792045770051172e-06 1.6178498636753615e-06 8.792045770051172e-06 -0.9998008714112135 0.0044549063314392205
21.25 -0.9997959935376232 0.004478664427814024 1.91171423809515e-06 9.427425665148528e-06 1.9117142380951498e-06 9.42742566514853e-06 -0.9997959935376232 0.004478664427814024
21.2525 -0.9997930466527027 0.004500906677153456 2.277653544518387e-06 1.0170639303202012e-05 2.277653544518386e-06 1.0170639303202012e-05 -0.9997930466527027 0.004500906677153456
21.255000000000003 -0.9997900014253591 0.0045232777924345555 2.74120441214693e-06 1.1042767230114373e-05 2.7412044121469314e-06 1.1042767230114376e-05 -0.9997900014253591 0.0045232777924345555
21.2575 -0.9997868199536889 0.004545807260055725 3.340366378053977e-06 1.2072852439944228e-05 3.340366378053979e-06 1.2072852439944228e-05 -0.9997868199536889 0.004545807260055724
21.26 -0.9997834447739757 0.004568532122700033 4.132684685864836e-06 1.3297525304064248e-05 4.132684685864836e-06 1.3297525304064248e-05 -0.9997834447739756 0.004568532122700032
21.262500000000003 -0.9997818143662184 0.004590579881562931 5.20895366158984e-06 1.4764497141463697e-05 5.20895366158984e-06 1.4764497141463697e-05 -0.9997818143662185 0.004590579881562931
21.265 -0.9997797547103588 0.004612919908838852 6.713999003237873e-06 1.65221203165371e-05 6.7139990032378726e-06 1.6522120316537104e-05 -0.9997797547103588 0.004612919908838852
21.2675 -0.9997770234730065 0.004635594710107878 8.890198187851856e-06 1.861254483435646e-05 8.890198187851861e-06 1.861254483435646e-05 -0.9997770234730065 0.004635594710107878
21.270000000000003 -0.9997732063988167 0.00465858887751945 1.2151841152371505e-05 2.10200213810594e-05 1.2151841152371505e-05 2.10200213810594e-05 -0.9997732063988167 0.00465858887751945
21.2725 -0.9997694931288786 0.004681350780786617 1.7207174346035977e-05 2.351651055759015e-05 1.720717434603598e-05 2.351651055759015e-05 -0.9997694931288786 0.004681350780786617
21.275000000000002 -0.9997629043506187 0.004703281289369077 2.513762750256799e-05 2.5178571337053563e-05 2.5137627502567987e-05 2.5178571337053563e-05 -0.9997629043506187 0.004703281289369077
21.2775 -0.9997525487536524 0.0047216575764163935 3.68345213391397e-05 2.328305168766487e-05 3.68345213391397e-05 2.328305168766487e-05 -0.9997525487536524 0.0047216575764163935
21.28 -0.9997410274178921 0.004731346836320696 4.969677952776902e-05 1.2696823766323413e-05 4.9696779527769015e-05 1.2696823766323411e-05 -0.9997410274178921 0.004731346836320696
21.282500000000002 -0.9997401008405579 0.004732060098848064 5.362798148408893e-05 -7.020876120295368e-06 5.362798148408893e-05 -7.020876120295368e-06 -0.9997401008405579 0.004732060098848064
21.285 -0.9997527158127619 0.004736187873866757 4.401721084550504e-05 -2.332846402632417e-05 4.4017210845505025e-05 -2.3328464026324165e-05 -0.9997527158127618 0.004736187873866756
21.2875 -0.9997688481377665 0.0047507711853080154 3.088864852100102e-05 -2.9185251393703962e-05 3.088864852100102e-05 -2.9185251393703962e-05 -0.9997688481377663 0.0047507711853080154
21.290000000000003 -0.999781778285958 0.004771494721161023 2.0961802253777958e-05 -2.8906891721216233e-05 2.0961802253777958e-05 -2.8906891721216233e-05 -0.999781778285958 0.004771494721161023
21.2925 -0.9997925923643584 0.004794686561145604 1.4523104184577377e-05 -2.6671859213285704e-05 1.4523104184577376e-05 -2.6671859213285697e-05 -0.9997925923643584 0.004794686561145604
21.295 -0.9998010790109798 0.004818147047959556 1.0411280373258387e-05 -2.417404951308046e-05 1.0411280373258387e-05 -2.417404951308046e-05 -0.9998010790109798 0.004818147047959555
21.297500000000003 -0.9998081482858141 0.004841370821258397 7.716229389302763e-06 -2.191920450862533e-05 7.716229389302763e-06 -2.1919204508625327e-05 -0.9998081482858141 0.0048413708212583974
21.3 -0.9998143528824894 0.004864260043449698 5.88520938784026e-06 -2.0005558697702267e-05 5.8852093878402595e-06 -2.000555869770227e-05 -0.9998143528824894 0.004864260043449698
21.302500000000006 -0.9998210719195001 0.004887585072302304 4.596773736341735e-06 -1.841349976692945e-05 4.596773736341735e-06 -1.841349976692945e-05 -0.9998210719195001 0.004887585072302304
21.305 -0.9998274385680407 0.004910647981090081 3.6599277941355525e-06 -1.7091149236340075e-05 3.6599277941355538e-06 -1.709114923634008e-05 -0.9998274385680407 0.004910647981090081
21.3075 -0.9998335684408852 0.004933497971154747 2.9589865661002744e-06 -1.598977333456284e-05 2.9589865661002744e-06 -1.598977333456284e-05 -0.9998335684408851 0.004933497971154747
21.310000000000002 -0.9998395342263638 0.0049561767184595545 2.4211804878564247e-06 -1.5068190470555444e-05 2.4211804878564213e-06 -1.5068190470555444e-05 -0.9998395342263637 0.0049561767184595545
21.3125 -0.9998461273413503 0.004979614758245194 1.9994893077386665e-06 -1.429506937086079e-05 1.9994893077386677e-06 -1.4295069370860789e-05 -0.9998461273413503 0.004979614758245194
21.315 -0.9998526351088566 0.005002941833825053 1.661968018979162e-06 -1.3642644516371369e-05 1.661968018979162e-06 -1.3642644516371369e-05 -0.9998526351088565 0.005002941833825053
21.317500000000003 -0.9998590791433613 0.0050261789307909375 1.386887165260197e-06 -1.3090536221609792e-05 1.386887165260197e-06 -1.309053622160979e-05 -0.9998590791433613 0.005026178930790937
21.32 -0.9998654746243025 0.005049342720588563 1.158938941891715e-06 -1.262272190173018e-05 1.158938941891716e-06 -1.262272190173018e-05 -0.9998654746243025 0.005049342720588563
21.3225 -0.9998722821035951 0.005073412981182952 9.672141993010234e-07 -1.222789103915512e-05 9.672141993010234e-07 -1.222789103915512e-05 -0.9998722821035952 0.005073412981182951
21.325000000000003 -0.9998790598537579 0.005097434208332342 8.0346191000276e-07 -1.1894636301093633e-05 8.034619100027589e-07 -1.1894636301093634e-05 -0.9998790598537578 0.0050974342083323415
21.3275 -0.9998858137593125 0.0051214152392040045 6.61617287833691e-07 -1.1614941494980677e-05 6.61617287833693e-07 -1.1614941494980677e-05 -0.9998858137593125 0.0051214152392040045
21.33 -0.9998925482417997 0.005145363390303602 5.370570926617699e-07 -1.1382378913279356e-05 5.370570926617709e-07 -1.1382378913279355e-05 -0.9998925482417997 0.005145363390303602
21.332500000000003 -0.9998994508113974 0.0051702575533617194 4.262448750709255e-07 -1.1192929604093168e-05 4.26244875070924e-07 -1.1192929604093168e-05 -0.9998994508113973 0.005170257553361719
21.335 -0.99990633987417 0.005195130273187228 3.2628786928694887e-07 -1.1041310516727238e-05 3.2628786928694887e-07 -1.1041310516727238e-05 -0.99990633987417 0.005195130273187228
21.337500000000002 -0.9999132174077808 0.005219986035036441 2.349213810399005e-07 -1.09241937669384e-05 2.3492138103990147e-07 -1.0924193766938402e-05 -0.9999132174077808 0.005219986035036442
21.34 -0.9999200849368451 0.005244828756845119 1.502973066574964e-07 -1.0838927425078071e-05 1.5029730665749737e-07 -1.083892742507807e-05 -0.999920084936845 0.005244828756845119
21.3425 -0.9999268970943055 0.00527059297367041 7.08839920621102e-08 -1.0784457947647641e-05 7.088399206210923e-08 -1.0784457947647641e-05 -0.9999268970943055 0.00527059297367041
21.345000000000002 -0.9999337012869008 0.005296350849333953 -4.641374130435133e-09 -1.0758189229838654e-05 -4.641374130434893e-09 -1.0758189229838653e-05 -0.9999337012869008 0.005296350849333952
21.3475 -0.9999404981730269 0.005322105261464479 -7.74096945736009e-08 -1.0758941087915659e-05 -7.740969457360066e-08 -1.0758941087915659e-05 -0.999940498173027 0.005322105261464478
21.35 -0.9999472882197707 0.005347858897137681 -1.4842638170585197e-07 -1.0785903435337506e-05 -1.4842638170585197e-07 -1.0785903435337506e-05 -0.9999472882197707 0.00534785889713768
21.352500000000003 -0.9999538315481942 0.005374468831758978 -2.1863752336803253e-07 -1.0839571452734117e-05 -2.186375233680324e-07 -1.0839571452734117e-05 -0.9999538315481942 0.005374468831758978
21.355 -0.9999603684706705 0.005401083117394827 -2.8889073258940554e-07 -1.0918870892514249e-05 -2.8889073258940554e-07 -1.0918870892514249e-05 -0.9999603684706706 0.005401083117394827
21.3575 -0.9999668990060346 0.0054277042082847395 -3.6002057302271084e-07 -1.10239472690669e-05 -3.600205730227107e-07 -1.10239472690669e-05 -0.9999668990060345 0.0054277042082847395
21.360000000000003 -0.9999734230430138 0.005454334574335957 -4.328585573382553e-07 -1.1155240765764819e-05 -4.32858557338255e-07 -1.1155240765764819e-05 -0.999973423043014 0.005454334574335957
21.3625 -0.9999795432980165 0.005481731040455301 -5.083159671755016e-07 -1.1314435146362049e-05 -5.083159671755016e-07 -1.1314435146362049e-05 -0.9999795432980165 0.0054817310404553015
21.365000000000006 -0.9999856564061451 0.005509142052317345 -5.872486474761404e-07 -1.1501703770409004e-05 -5.87248647476141e-07 -1.1501703770409002e-05 -0.9999856564061451 0.005509142052317345
