!Created with skrf (http://scikit-rf.org).
# GHz S RI R 8001.47300089272 
!freq ReS11 ImS11 ReS21 ImS21 ReS12 ImS12 ReS22 ImS22
21.1 -0.9999733225894127 0.0017315761861286115 2.677586009205826e-07 2.401655873515503e-05 2.677586009205826e-07 2.4016558735155028e-05 -0.9999733225894128 0.0017315761861286115
21.102500000000003 -0.9997899370990304 -0.004251290422702706 1.6983084476935079e-07 2.4618543084208894e-05 1.6983084476935092e-07 2.4618543084208898e-05 -0.9997899370990304 -0.004251290422702706
21.105 -0.9996065617941081 -0.010234140260312942 6.981012965896836e-08 2.5234252791527768e-05 6.981012965896857e-08 2.523425279152776e-05 -0.999606561794108 -0.01023414026031294
21.1075 -0.9994231967769809 -0.016216972759417674 -3.2361020291799556e-08 2.5864171950235082e-05 -3.236102029179967e-08 2.5864171950235085e-05 -0.9994231967769809 -0.016216972759417674
21.110000000000003 -0.9992398421520491 -0.02219978733134057 -1.3674263567177293e-07 2.6508805260240624e-05 -1.367426356717725e-07 2.6508805260240617e-05 -0.9992398421520491 -0.02219978733134057
21.1125 -0.9990304548244291 -0.02586547891397921 -2.0044283054074542e-07 2.7141439946029036e-05 -2.0044283054074542e-07 2.7141439946029033e-05 -0.9990304548244291 -0.025865478913979206
21.115000000000006 -0.998821076181028 -0.029531151194092595 -2.6532642852846536e-07 2.778927458619584e-05 -2.6532642852846536e-07 2.778927458619584e-05 -0.9988210761810279 -0.02953115119409259
21.1175 -0.9986117062769555 -0.03319680354083005 -3.314244737369088e-07 2.8452856987346475e-05 -3.314244737369079e-07 2.8452856987346472e-05 -0.9986117062769555 -0.03319680354083005
21.12 -0.9984023451681769 -0.0368624352982779 -3.987689972713963e-07 2.9132759384070455e-05 -3.9876899727139675e-07 2.9132759384070455e-05 -0.9984023451681769 -0.0368624352982779
21.122500000000002 -0.9982252962002169 -0.03913627224615554 -4.397726931306058e-07 2.9802997224951575e-05 -4.397726931306063e-07 2.9802997224951575e-05 -0.9982252962002169 -0.03913627224615554
21.125 -0.9980482546786387 -0.04141008753643328 -4.813596175300748e-07 3.0490122768584755e-05 -4.813596175300748e-07 3.049012276858476e-05 -0.9980482546786387 -0.041410087536433285
21.1275 -0.9978712206264282 -0.043683880461621166 -5.235391998647268e-07 3.1194763337893207e-05 -5.235391998647268e-07 3.1194763337893207e-05 -0.9978712206264282 -0.04368388046162117
21.130000000000003 -0.9976941940663084 -0.04595765028430479 -5.663206063094391e-07 3.191757547324998e-05 -5.663206063094401e-07 3.191757547324997e-05 -0.9976941940663084 -0.04595765028430479
21.1325 -0.9975603232079385 -0.04732958703045942 -5.901862465582877e-07 3.263288832594542e-05 -5.901862465582868e-07 3.263288832594542e-05 -0.9975603232079384 -0.04732958703045942
21.135 -0.9974264587055095 -0.04870149967901234 -6.141623840873865e-07 3.3367093473280874e-05 -6.141623840873865e-07 3.3367093473280874e-05 -0.9974264587055096 -0.04870149967901234
21.137500000000003 -0.9972926005555621 -0.05007338742633776 -6.382377358473615e-07 3.412091718277859e-05 -6.382377358473606e-07 3.412091718277859e-05 -0.9972926005555621 -0.05007338742633776
21.14 -0.9971587487531571 -0.05144524943269043 -6.623995047810523e-07 3.4895121111660025e-05 -6.623995047810514e-07 3.4895121111660025e-05 -0.9971587487531571 -0.05144524943269044
21.1425 -0.9970650728045686 -0.05220624519834679 -6.720020497581529e-07 3.566423216449273e-05 -6.720020497581521e-07 3.566423216449273e-05 -0.9970650728045686 -0.052206245198346796
21.145000000000003 -0.9969714022039873 -0.052967214164728535 -6.812841672718345e-07 3.645464937165299e-05 -6.812841672718328e-07 3.645464937165298e-05 -0.9969714022039873 -0.05296721416472854
21.1475 -0.9968777369224359 -0.05372815540621588 -6.902123387978334e-07 3.726722320572292e-05 -6.902123387978387e-07 3.7267223205722935e-05 -0.9968777369224359 -0.05372815540621588
21.150000000000002 -0.9967840769279923 -0.05448906795298916 -6.987500734982934e-07 3.810284760468311e-05 -6.987500734982898e-07 3.8102847604683105e-05 -0.9967840769279924 -0.05448906795298916
21.1525 -0.9967239604097183 -0.054824925798048485 -6.954754619005003e-07 3.8936210800141694e-05 -6.954754619005021e-07 3.8936210800141694e-05 -0.9967239604097183 -0.05482492579804848
21.155 -0.9966638482671872 -0.05516075371948489 -6.914383449191948e-07 3.979381415271051e-05 -6.914383449191948e-07 3.97938141527105e-05 -0.9966638482671872 -0.055160753719484895
21.157500000000002 -0.9966037404434901 -0.05549655063551256 -6.865792244540491e-07 4.067666585801445e-05 -6.865792244540526e-07 4.067666585801446e-05 -0.9966037404434902 -0.05549655063551256
21.16 -0.9965436368768819 -0.05583231540941025 -6.808337577325585e-07 4.158582829463525e-05 -6.808337577325602e-07 4.158582829463525e-05 -0.9965436368768819 -0.05583231540941025
21.1625 -0.996510157021844 -0.05586771475373871 -6.650601290982452e-07 4.249613695868831e-05 -6.650601290982434e-07 4.249613695868831e-05 -0.996510157021844 -0.05586771475373871
21.165000000000003 -0.9964766805631929 -0.055903080449935624 -6.480276137982316e-07 4.343428528498567e-05 -6.48027613798235e-07 4.343428528498567e-05 -0.9964766805631929 -0.055903080449935624
21.1675 -0.99644320741045 -0.055938411214322824 -6.296443490318113e-07 4.4401484330391647e-05 -6.296443490318113e-07 4.4401484330391647e-05 -0.99644320741045 -0.055938411214322824
21.17 -0.9964097374657177 -0.05597370569383908 -6.098110711648894e-07 4.539901378096759e-05 -6.098110711648894e-07 4.539901378096759e-05 -0.9964097374657177 -0.055973705693839075
21.172500000000003 -0.9963967639652408 -0.055795320657097636 -5.810814331232906e-07 4.6401849530953395e-05 -5.810814331232977e-07 4.64018495309534e-05 -0.9963967639652408 -0.05579532065709763
21.175 -0.99638379282757 -0.055616897428992826 -5.504971607754068e-07 4.743698682005482e-05 -5.504971607754104e-07 4.743698682005482e-05 -0.99638379282757 -0.05561689742899282
21.177500000000006 -0.9963708239190677 -0.055438434461737185 -5.179240155032546e-07 4.8505901295670805e-05 -5.17924015503251e-07 4.8505901295670805e-05 -0.9963708239190677 -0.055438434461737185
21.18 -0.9963578570950109 -0.0552599301183483 -4.832167150373983e-07 4.961015704663335e-05 -4.832167150374019e-07 4.961015704663334e-05 -0.9963578570950109 -0.0552599301183483
21.1825 -0.9963603082485794 -0.0549295938378036 -4.402379598650392e-07 5.072486946969414e-05 -4.402379598650392e-07 5.072486946969413e-05 -0.9963603082485794 -0.0549295938378036
21.185000000000002 -0.9963627606178129 -0.054599213716682325 -3.946532460770701e-07 5.1877479719443875e-05 -3.946532460770666e-07 5.1877479719443875e-05 -0.9963627606178129 -0.054599213716682325
21.1875 -0.9963652140107617 -0.054268787856798825 -3.4627056582194174e-07 5.306981392502125e-05 -3.462705658219524e-07 5.306981392502126e-05 -0.9963652140107616 -0.054268787856798825
21.19 -0.9963676682189938 -0.05393831424306185 -2.9488149376686723e-07 5.4303814359675646e-05 -2.948814937668744e-07 5.430381435967565e-05 -0.9963676682189938 -0.05393831424306185
21.192500000000003 -0.9963814699831757 -0.05350099014699779 -2.3538661530379813e-07 5.555474648336593e-05 -2.3538661530380528e-07 5.5554746483365936e-05 -0.9963814699831757 -0.053500990146997794
21.195 -0.9963952716206502 -0.05306361506118734 -1.7230071674589732e-07 5.6850690132012376e-05 -1.7230071674589732e-07 5.685069013201237e-05 -0.9963952716206501 -0.05306361506118734
21.1975 -0.9964090728574991 -0.05262618661482949 -1.0535023315479372e-07 5.8193943792695414e-05 -1.053502331547973e-07 5.81939437926954e-05 -0.9964090728574991 -0.052626186614829484
21.200000000000003 -0.9964228733951214 -0.05218870228063176 -3.423699938973621e-08 5.9586961681176155e-05 -3.423699938973979e-08 5.958696168117617e-05 -0.9964228733951213 -0.05218870228063176
21.2025 -0.9964448227308557 -0.05167754821055701 4.530384615840582e-08 6.100519270638257e-05 4.5303846158409406e-08 6.1005192706382565e-05 -0.9964448227308556 -0.05167754821055702
21.205 -0.9964667702825849 -0.051166333943228365 1.2977064109676798e-07 6.247761664042976e-05 1.2977064109677873e-07 6.247761664042976e-05 -0.9964667702825849 -0.051166333943228365
21.207500000000003 -0.9964887156570896 -0.05065505645812726 2.195559104961522e-07 6.40071811485441e-05 2.195559104961486e-07 6.40071811485441e-05 -0.9964887156570896 -0.05065505645812726
21.21 -0.9965106584235854 -0.050143712520273456 3.1508964527460864e-07 6.5597047584311e-05 3.1508964527461224e-07 6.5597047584311e-05 -0.9965106584235854 -0.050143712520273456
21.212500000000002 -0.9965382691944273 -0.04958342357027461 4.199689568699743e-07 6.722292425230208e-05 4.199689568699887e-07 6.722292425230207e-05 -0.9965382691944273 -0.04958342357027461
21.215 -0.9965658760248143 -0.04902306234214555 5.316397999133609e-07 6.891505185157898e-05 5.316397999133609e-07 6.891505185157898e-05 -0.9965658760248143 -0.049023062342145554
21.2175 -0.9965934783419363 -0.048462624902307336 6.506739805546573e-07 7.067729030777648e-05 6.506739805546501e-07 7.067729030777648e-05 -0.9965934783419362 -0.048462624902307336
21.220000000000002 -0.9966210755144697 -0.04790210701546066 7.77701708238675e-07 7.251380047677066e-05 7.77701708238675e-07 7.251380047677067e-05 -0.9966210755144695 -0.04790210701546066
21.2225 -0.9966524359379383 -0.047311191443996495 9.15808850457972e-07 7.440070280201955e-05 9.15808850457972e-07 7.440070280201955e-05 -0.9966524359379383 -0.047311191443996495
21.225 -0.9966837894692017 -0.046720187414665014 1.0633966692774454e-06 7.63700115484822e-05 1.0633966692774382e-06 7.63700115484822e-05 -0.9966837894692018 -0.046720187414665014
21.227500000000003 -0.9967151352554359 -0.04612908967774344 1.2213166878643045e-06 7.842690175287866e-05 1.2213166878643045e-06 7.842690175287866e-05 -0.9967151352554358 -0.04612908967774345
21.23 -0.9967464723498827 -0.04553789254623809 1.3905142410728556e-06 8.057698490957067e-05 1.3905142410728484e-06 8.057698490957066e-05 -0.9967464723498827 -0.045537892546238086
21.2325 -0.996780122764778 -0.044930260324957706 1.5737408506425181e-06 8.279708442397934e-05 1.5737408506425107e-06 8.279708442397934e-05 -0.9967801227647781 -0.044930260324957706
21.235000000000003 -0.9968137620434709 -0.044322517464748135 1.7704547990385481e-06 8.512174216707575e-05 1.7704547990385405e-06 8.512174216707576e-05 -0.9968137620434709 -0.044322517464748135
21.2375 -0.9968473888793432 -0.043714656761883686 1.9819611032507928e-06 8.755808591597589e-05 1.9819611032507928e-06 8.755808591597588e-05 -0.9968473888793433 -0.043714656761883686
21.240000000000006 -0.9968810018092636 -0.043106670356989604 2.2097211648165126e-06 9.011389824400965e-05 2.209721164816504e-06 9.011389824400965e-05 -0.9968810018092635 -0.043106670356989604
21.2425 -0.9969158331672083 -0.042492763495208835 2.4563984060101714e-06 9.276724859047576e-05 2.4563984060101545e-06 9.276724859047577e-05 -0.9969158331672083 -0.04249276349520883
21.245 -0.9969506469796243 -0.04187871475062669 2.7227575067881394e-06 9.555636389769333e-05 2.722757506788122e-06 9.555636389769331e-05 -0.9969506469796244 -0.04187871475062669
21.247500000000002 -0.9969854411713545 -0.04126451391648407 3.010871715591882e-06 9.849137347749463e-05 3.010871715591882e-06 9.849137347749463e-05 -0.9969854411713545 -0.04126451391648407
21.25 -0.9970202133943206 -0.04065014976335102 3.323087064955339e-06 0.00010158342843121384 3.3230870649553296e-06 0.00010158342843121384 -0.9970202133943206 -0.040650149763351025
21.2525 -0.9970553833671644 -0.040037756721937795 3.6623900773311253e-06 0.00010481286220153358 3.6623900773311155e-06 0.00010481286220153358 -0.9970553833671645 -0.040037756721937795
21.255000000000003 -0.9970905256044237 -0.03942517635588794 4.031370240718397e-06 0.00010822345540206932 4.031370240718387e-06 0.00010822345540206932 -0.9970905256044237 -0.03942517635588794
21.2575 -0.9971256366603588 -0.03881239365032461 4.433471064183582e-06 0.00011183014373113029 4.433471064183582e-06 0.00011183014373113031 -0.9971256366603588 -0.03881239365032461
21.26 -0.9971607125861598 -0.038199391919097346 4.872638985007803e-06 0.00011564953322540754 4.872638985007803e-06 0.00011564953322540756 -0.9971607125861598 -0.03819939191909735
21.262500000000003 -0.9971955742273998 -0.03759423511403723 5.352971317822961e-06 0.00011966617212427062 5.35297131782295e-06 0.00011966617212427061 -0.9971955742273998 -0.03759423511403723
21.265 -0.9972303909867922 -0.03698882230015765 5.879950087408075e-06 0.00012393259508650958 5.879950087408064e-06 0.00012393259508650955 -0.9972303909867922 -0.036988822300157646
21.2675 -0.9972651568179146 -0.03638313037641959 6.459619149163308e-06 0.0001284718219815955 6.459619149163296e-06 0.00012847182198159554 -0.9972651568179146 -0.03638313037641959
21.270000000000003 -0.9972998646813452 -0.03577713335347606 7.099015209296578e-06 0.0001333097600064836 7.099015209296591e-06 0.0001333097600064836 -0.9972998646813452 -0.035777133353476064
21.2725 -0.9973338999551927 -0.03518328225045166 7.805027253959371e-06 0.00013843905925115893 7.805027253959378e-06 0.00013843905925115893 -0.9973338999551927 -0.03518328225045167
21.275000000000002 -0.997367859530035 -0.03458906632233461 8.588341671097329e-06 0.00014392688538758484 8.588341671097349e-06 0.00014392688538758487 -0.997367859530035 -0.03458906632233461
21.2775 -0.9974017320330608 -0.033994448028197864 9.460328349655021e-06 0.0001498106959243124 9.460328349655014e-06 0.0001498106959243124 -0.9974017320330608 -0.033994448028197864
21.28 -0.9974355039556545 -0.03339938448211759 1.0434492828990562e-05 0.00015613329231488308 1.0434492828990547e-05 0.00015613329231488305 -0.9974355039556545 -0.033399384482117586
21.282500000000002 -0.9974682476949617 -0.032819514794131865 1.1524488771108356e-05 0.0001629036241421938 1.1524488771108378e-05 0.00016290362414219384 -0.9974682476949617 -0.03281951479413186
21.285 -0.9975008557056869 -0.03223909745763169 1.2751669361171939e-05 0.00017021521741915647 1.275166936117193e-05 0.00017021521741915647 -0.9975008557056869 -0.03223909745763169
21.2875 -0.9975333046000437 -0.03165806714914334 1.413941908889413e-05 0.00017813330964656723 1.4139419088894138e-05 0.00017813330964656723 -0.9975333046000437 -0.03165806714914334
21.290000000000003 -0.997565565860188 -0.03107634777274556 1.5716252342457497e-05 0.00018673390965838805 1.5716252342457517e-05 0.00018673390965838807 -0.9975655658601879 -0.03107634777274556
21.2925 -0.9975964847486664 -0.030511823056473944 1.7513140525176666e-05 0.0001960609477706835 1.7513140525176666e-05 0.0001960609477706835 -0.9975964847486664 -0.030511823056473944
21.295 -0.9976271382947532 -0.029946419618560417 1.9576692132254725e-05 0.00020626021471547733 1.9576692132254708e-05 0.00020626021471547727 -0.9976271382947532 -0.029946419618560413
21.297500000000003 -0.9976574723616473 -0.029380013385076634 2.1961040272066066e-05 0.00021745569558175373 2.1961040272066046e-05 0.00021745569558175373 -0.9976574723616473 -0.029380013385076634
21.3 -0.9976874185439398 -0.02881245608496862 2.473458649519747e-05 0.0002297955713883053 2.473458649519748e-05 0.00022979557138830533 -0.9976874185439398 -0.028812456084968623
21.302500000000006 -0.997715635486959 -0.02826310919980514 2.7978178449720995e-05 0.0002434059341257535 2.797817844972102e-05 0.0002434059341257535 -0.9977156354869589 -0.028263109199805143
21.305 -0.9977432656931494 -0.027712222340891355 3.18097040061553e-05 0.0002585496537681382 3.18097040061553e-05 0.00025854965376813816 -0.9977432656931495 -0.02771222234089136
21.3075 -0.997770161572342 -0.02715953118743947 3.637674922166819e-05 0.0002754909590390671 3.6376749221668164e-05 0.0002754909590390671 -0.997770161572342 -0.02715953118743947
21.310000000000002 -0.9977961269002459 -0.026604709035520018 4.1875534102446963e-05 0.00029455646051576524 4.187553410244702e-05 0.00029455646051576535 -0.997796126900246 -0.026604709035520018
21.3125 -0.9978195652293388 -0.02606789879661785 4.856028322390618e-05 0.00031609032953139614 4.85602832239062e-05 0.00031609032953139614 -0.9978195652293388 -0.02606789879661785
21.315 -0.9978414462760742 -0.025528045016140054 5.6803396639203474e-05 0.0003406609794914259 5.680339663920351e-05 0.00034066097949142607 -0.9978414462760742 -0.025528045016140054
21.317500000000003 -0.9978612589323623 -0.02498449415786866 6.711597787859998e-05 0.000368921850938762 6.711597787859995e-05 0.0003689218509387619 -0.9978612589323624 -0.024984494157868655
21.32 -0.9978782689633084 -0.02443640451849998 8.023225709920823e-05 0.00040171455010979947 8.023225709920824e-05 0.00040171455010979936 -0.9978782689633084 -0.02443640451849998
21.3225 -0.9978900317198702 -0.023903815471376738 9.721403300442952e-05 0.0004400503149356373 9.721403300442957e-05 0.0004400503149356374 -0.9978900317198703 -0.023903815471376738
21.325000000000003 -0.9978962758068535 -0.023364179813571702 0.00011971545377939798 0.00048542576476090553 0.00011971545377939801 0.00048542576476090564 -0.9978962758068534 -0.023364179813571702
21.3275 -0.997894430013823 -0.022815635620470197 0.00015030772482254231 0.0005397027244799756 0.00015030772482254231 0.0005397027244799756 -0.997894430013823 -0.022815635620470197
21.33 -0.9978803109785969 -0.022255803250107863 0.00019317420309338193 0.0006052607348206495 0.000193174203093382 0.0006052607348206496 -0.997880310978597 -0.02225580325010786
21.332500000000003 -0.9978454896885827 -0.021703249233666108 0.00025535077904340373 0.0006848091075658489 0.00025535077904340373 0.0006848091075658489 -0.9978454896885826 -0.021703249233666108
21.335 -0.9977788471396973 -0.021134033341833065 0.0003493494895774271 0.0007810122420625758 0.00034934948957742715 0.0007810122420625759 -0.9977788471396973 -0.02113403334183307
21.337500000000002 -0.9976576637754804 -0.02054887688104306 0.0004978898856094384 0.0008931487276199537 0.0004978898856094384 0.0008931487276199536 -0.9976576637754804 -0.02054887688104306
21.34 -0.9974409796127764 -0.019963013884025518 0.0007419319445506413 0.001005984425614145 0.0007419319445506413 0.001005984425614145 -0.9974409796127764 -0.019963013884025514
21.3425 -0.9970659033049454 -0.019464443802921113 0.001142985732277476 0.001052759665962776 0.001142985732277476 0.001052759665962776 -0.9970659033049453 -0.019464443802921113
21.345000000000002 -0.9965231670316349 -0.019228898871501816 0.001711700267652343 0.0008365024303153841 0.001711700267652343 0.0008365024303153841 -0.9965231670316349 -0.019228898871501813
21.3475 -0.9961385237582115 -0.019490090110348565 0.0021223225792111403 0.0001235015887680741 0.0021223225792111403 0.0001235015887680741 -0.9961385237582115 -0.01949009011034856
21.35 -0.9964060835554599 -0.01985963094720801 0.0018807425898628887 -0.0006978563975449297 0.0018807425898628883 -0.0006978563975449294 -0.9964060835554599 -0.019859630947208006
21.352500000000003 -0.996999571160919 -0.019779955552968773 0.0013118819271525596 -0.0010490023709467762 0.0013118819271525596 -0.0010490023709467762 -0.996999571160919 -0.019779955552968773
21.355 -0.9974737610898795 -0.019359117916718682 0.0008623196346373002 -0.0010589936680290833 0.0008623196346372998 -0.0010589936680290828 -0.9974737610898795 -0.01935911791671868
21.3575 -0.9977797176189049 -0.018831988984556333 0.0005809914290593629 -0.0009627013498939562 0.0005809914290593629 -0.0009627013498939562 -0.9977797176189049 -0.018831988984556333
21.360000000000003 -0.9979762658933095 -0.018292154686980783 0.00040907215818853255 -0.0008537114640011591 0.0004090721581885327 -0.0008537114640011593 -0.9979762658933095 -0.018292154686980786
21.3625 -0.9981081952506026 -0.01778488744892295 0.00030045749079008773 -0.0007566816709505948 0.0003004574907900877 -0.0007566816709505947 -0.9981081952506025 -0.01778488744892295
21.365000000000006 -0.9982031649216109 -0.017293396356954354 0.0002288031190720958 -0.0006754358580305477 0.00022880311907209574 -0.0006754358580305476 -0.9982031649216109 -0.017293396356954358
